
**** 10/30/20 17:44:17 ************** PSpice Lite (Mar 2000) *****************

 ** Profile: "SCHEMATIC1-high "  [ D:\ae\fffffffffff-schematic1-high .sim ] 


 ****     CIRCUIT DESCRIPTION


******************************************************************************




** Creating circuit file "fffffffffff-schematic1-high .sim.cir" 
** WARNING: THIS AUTOMATICALLY GENERATED FILE MAY BE OVERWRITTEN BY SUBSEQUENT SIMULATIONS

*Libraries: 
* Local Libraries :
* From [PSPICE NETLIST] section of d:\PSpice\PSpice.ini file:
.lib "nom.lib" 

*Analysis directives: 
.AC DEC 101 100 10mega
.PROBE V(*) I(*) W(*) D(*) NOISE(*) 
.INC ".\fffffffffff-SCHEMATIC1.net" 



**** INCLUDING fffffffffff-SCHEMATIC1.net ****
* source FFFFFFFFFFF
Q_Q2         N01675 N01455 N01774 Q2N2222
V_V5         N01613 0 18Vdc
V_V3         N01394 0 DC 0Vdc AC 50mVac 
C_C2         N01675 N01705  10uF  
C_C3         0 N01774  10uF  
R_R3         N01394 N01428  100  
R_R8         0 N01705  2k  
C_C1         N01428 N01455  10uF  
R_R4         N01455 N01613  47k  
R_R5         0 N01455  10k  
R_R6         N01675 N01613  4k  
R_R7         0 N01774  1k  

**** RESUMING "fffffffffff-schematic1-high .sim.cir" ****
.END

**** 10/30/20 17:44:17 ************** PSpice Lite (Mar 2000) *****************

 ** Profile: "SCHEMATIC1-high "  [ D:\ae\fffffffffff-schematic1-high .sim ] 


 ****     BJT MODEL PARAMETERS


******************************************************************************




               Q2N2222         
               NPN             
          IS   14.340000E-15 
          BF  255.9          
          NF    1            
         VAF   74.03         
         IKF     .2847       
         ISE   14.340000E-15 
          NE    1.307        
          BR    6.092        
          NR    1            
          RB   10            
          RC    1            
         CJE   22.010000E-12 
         MJE     .377        
         CJC    7.306000E-12 
         MJC     .3416       
          TF  411.100000E-12 
         XTF    3            
         VTF    1.7          
         ITF     .6          
          TR   46.910000E-09 
         XTB    1.5          
          CN    2.42         
           D     .87         


**** 10/30/20 17:44:17 ************** PSpice Lite (Mar 2000) *****************

 ** Profile: "SCHEMATIC1-high "  [ D:\ae\fffffffffff-schematic1-high .sim ] 


 ****     SMALL SIGNAL BIAS SOLUTION       TEMPERATURE =   27.000 DEG C


******************************************************************************



 NODE   VOLTAGE     NODE   VOLTAGE     NODE   VOLTAGE     NODE   VOLTAGE


(N01394)    0.0000 (N01428)    0.0000 (N01455)    3.0434 (N01613)   18.0000     

(N01675)    8.5477 (N01705)    0.0000 (N01774)    2.3769 




    VOLTAGE SOURCE CURRENTS
    NAME         CURRENT

    V_V5        -2.681E-03
    V_V3         0.000E+00

    TOTAL POWER DISSIPATION   4.83E-02  WATTS



          JOB CONCLUDED

          TOTAL JOB TIME             .20
