
**** 09/21/20 20:00:10 ************** PSpice Lite (Mar 2000) *****************

 ** Profile: "SCHEMATIC1-full"  [ D:\ae\full-SCHEMATIC1-full.sim ] 


 ****     CIRCUIT DESCRIPTION


******************************************************************************




** Creating circuit file "full-SCHEMATIC1-full.sim.cir" 
** WARNING: THIS AUTOMATICALLY GENERATED FILE MAY BE OVERWRITTEN BY SUBSEQUENT SIMULATIONS

*Libraries: 
* Local Libraries :
* From [PSPICE NETLIST] section of d:\PSpice\PSpice.ini file:
.lib "nom.lib" 

*Analysis directives: 
.TRAN  0 40ms 0 
.PROBE V(*) I(*) W(*) D(*) NOISE(*) 
.INC ".\full-SCHEMATIC1.net" 



**** INCLUDING full-SCHEMATIC1.net ****
* source FULL
D_D1         N00169 N00207 Dbreak 
C_C1         N00268 N00207  50uF  
D_D2         N00268 N00169 Dbreak 
D_D3         N00241 N00207 Dbreak 
D_D4         N00268 N00241 Dbreak 
V_V1         N00169 N00241  
+SIN 0 10 50 0 0 0
R_R1         0 N00207  1k  
R_R2         N00268 0  1k  

**** RESUMING full-SCHEMATIC1-full.sim.cir ****
.END

**** 09/21/20 20:00:10 ************** PSpice Lite (Mar 2000) *****************

 ** Profile: "SCHEMATIC1-full"  [ D:\ae\full-SCHEMATIC1-full.sim ] 


 ****     Diode MODEL PARAMETERS


******************************************************************************




               Dbreak          
          IS   10.000000E-15 
          RS     .1          
         CJO  100.000000E-15 


**** 09/21/20 20:00:10 ************** PSpice Lite (Mar 2000) *****************

 ** Profile: "SCHEMATIC1-full"  [ D:\ae\full-SCHEMATIC1-full.sim ] 


 ****     INITIAL TRANSIENT SOLUTION       TEMPERATURE =   27.000 DEG C


******************************************************************************



 NODE   VOLTAGE     NODE   VOLTAGE     NODE   VOLTAGE     NODE   VOLTAGE


(N00169) 556.1E-21 (N00207) 436.5E-30 (N00241) 556.1E-21 (N00268)-438.0E-30 




    VOLTAGE SOURCE CURRENTS
    NAME         CURRENT

    V_V1         0.000E+00

    TOTAL POWER DISSIPATION   0.00E+00  WATTS



          JOB CONCLUDED

          TOTAL JOB TIME             .33
